
T556C 000:662 SEGGER J-Link V4.90 Log File (0001ms, 0270ms total)
T556C 000:662 DLL Compiled: Jul 28 2014 10:35:20 (0001ms, 0270ms total)
T556C 000:662 Logging started @ 2018-03-02 18:56 (0001ms, 0270ms total)
T556C 000:663 JLINK_SetWarnOutHandler(...) (0000ms, 0270ms total)
T556C 000:663 JLINK_OpenEx(...)
Firmware: J-Link ARM V8 compiled Nov 28 2014 13:44:46
Hardware: V8.00
S/N: 58004075
Feature(s): RDI,FlashDL,FlashBP,JFlash,GDBFULL  returns O.K. (0270ms, 0540ms total)
T556C 000:933 JLINK_SetErrorOutHandler(...) (0000ms, 0540ms total)
T556C 000:933 JLINK_ExecCommand("ProjectFile = "D:\git_software\BingoBin\Code_BingoBin\Projects\JLinkSettings.ini"", ...)  returns 0x00 (0000ms, 0540ms total)
T556C 000:944 JLINK_ExecCommand("Device = STM32F030C8", ...)Device "STM32F030C8" selected (64 KB flash, 8 KB RAM).  returns 0x00 (0008ms, 0548ms total)
T556C 000:952 JLINK_ExecCommand("DisableConnectionTimeout", ...)  returns 0x01 (0000ms, 0548ms total)
T556C 000:952 JLINK_GetHardwareVersion()  returns 0x13880 (0000ms, 0548ms total)
T556C 000:952 JLINK_GetDLLVersion()  returns 49000 (0000ms, 0548ms total)
T556C 000:952 JLINK_GetFirmwareString(...) (0000ms, 0548ms total)
T556C 000:995 JLINK_GetDLLVersion()  returns 49000 (0000ms, 0548ms total)
T556C 000:995 JLINK_GetCompileDateTime() (0000ms, 0548ms total)
T556C 001:017 JLINK_GetFirmwareString(...) (0000ms, 0548ms total)
T556C 001:031 JLINK_GetHardwareVersion()  returns 0x13880 (0000ms, 0548ms total)
T556C 001:064 JLINK_TIF_Select(JLINKARM_TIF_SWD)  returns 0x00 (0000ms, 0548ms total)
T556C 001:064 JLINK_SetSpeed(500) (0000ms, 0548ms total)
T556C 001:064 JLINK_GetId() >0x108 TIF>Found SWD-DP with ID 0x0BB11477 >0x0D TIF> >0x28 TIF> >0x0D TIF> >0x28 TIF> >0x0D TIF> >0x21 TIF> >0x0D TIF> >0x28 TIF> >0x0D TIF> >0x28 TIF> >0x0D TIF> >0x28 TIF> >0x0D TIF> >0x21 TIF> >0x0D TIF> >0x21 TIF> >0x0D TIF> >0x28 TIF> >0x0D TIF> >0x21 TIF> >0x0D TIF> >0x21 TIF> >0x0D TIF> >0x28 TIF> >0x0D TIF> >0x28 TIF> >0x0D TIF> >0x28 TIF> >0x0D TIF> >0x21 TIF> >0x0D TIF> >0x21 TIF> >0x0D TIF> >0x28 TIF> >0x0D TIF> >0x28 TIF> >0x108 TIF>Found SWD-DP with ID 0x0BB11477
 >0x0D TIF> >0x21 TIF> >0x0D TIF> >0x28 TIF> >0x0D TIF> >0x28 TIF> >0x0D TIF> >0x21 TIF> >0x0D TIF> >0x28 TIF> >0x0D TIF> >0x21 TIF> >0x0D TIF> >0x21 TIF> >0x0D TIF> >0x21 TIF> >0x0D TIF> >0x21 TIF> >0x0D TIF> >0x28 TIF> >0x0D TIF> >0x28 TIF> >0x0D TIF> >0x21 TIF> >0x0D TIF> >0x28 TIF> >0x0D TIF> >0x28 TIF> >0x0D TIF> >0x28 TIF> >0x0D TIF> >0x21 TIF> >0x0D TIF> >0x21 TIF> >0x0D TIF> >0x28 TIF> >0x0D TIF> >0x21 TIF> >0x0D TIF> >0x21 TIF>Found Cortex-M0 r0p0, Little endian.
 -- CPU_WriteMem(4 bytes @ 0xE0002000) -- CPU_ReadMem(4 bytes @ 0xE000EDF0) -- CPU_ReadMem(4 bytes @ 0xE0002000)FPUnit: 4 code (BP) slots and 0 literal slots -- CPU_ReadMem(4 bytes @ 0xE000EDFC) -- CPU_ReadMem(4 bytes @ 0xE0001000) -- CPU_WriteMem(4 bytes @ 0xE0001000) -- CPU_ReadMem(4 bytes @ 0xE00FF018) -- CPU_WriteMem(8192 bytes @ 0x20000000)
                JLINK_Go() (0001ms, 0001ms total)
               >0x0D TIF> >0x21 TIF>  returns 0x0BB11477 (0184ms, 0732ms total)
T556C 001:248 JLINK_GetDLLVersion()  returns 49000 (0000ms, 0732ms total)
T556C 001:248 JLINK_CORE_GetFound()  returns 0x60000FF (0000ms, 0732ms total)
T556C 001:253 JLINK_ReadMem (0xE00FF000, 0x0020 Bytes, ...) -- CPU is running -- CPU_ReadMem(32 bytes @ 0xE00FF000) - Data: 03 F0 F0 FF 03 20 F0 FF 03 30 F0 FF 00 00 00 00 ...  returns 0x00 (0002ms, 0734ms total)
T556C 001:255 JLINK_ReadMem (0xE000EFF0, 0x0010 Bytes, ...) -- CPU is running -- CPU_ReadMem(16 bytes @ 0xE000EFF0) - Data: 0D 00 00 00 E0 00 00 00 05 00 00 00 B1 00 00 00  returns 0x00 (0001ms, 0735ms total)
T556C 001:256 JLINK_ReadMem (0xE000EFD0, 0x0020 Bytes, ...) -- CPU is running -- CPU_ReadMem(32 bytes @ 0xE000EFD0) - Data: 04 00 00 00 00 00 00 00 00 00 00 00 00 00 00 00 ...  returns 0x00 (0001ms, 0736ms total)
T556C 001:257 JLINK_ReadMem (0xE0001FF0, 0x0010 Bytes, ...) -- CPU is running -- CPU_ReadMem(16 bytes @ 0xE0001FF0) - Data: 0D 00 00 00 E0 00 00 00 05 00 00 00 B1 00 00 00  returns 0x00 (0002ms, 0738ms total)
T556C 001:259 JLINK_ReadMem (0xE0001FD0, 0x0020 Bytes, ...) -- CPU is running -- CPU_ReadMem(32 bytes @ 0xE0001FD0) - Data: 04 00 00 00 00 00 00 00 00 00 00 00 00 00 00 00 ...  returns 0x00 (0001ms, 0739ms total)
T556C 001:260 JLINK_ReadMem (0xE0002FF0, 0x0010 Bytes, ...) -- CPU is running -- CPU_ReadMem(16 bytes @ 0xE0002FF0) - Data: 0D 00 00 00 E0 00 00 00 05 00 00 00 B1 00 00 00  returns 0x00 (0002ms, 0741ms total)
T556C 001:262 JLINK_ReadMem (0xE0002FD0, 0x0020 Bytes, ...) -- CPU is running -- CPU_ReadMem(32 bytes @ 0xE0002FD0) - Data: 04 00 00 00 00 00 00 00 00 00 00 00 00 00 00 00 ...  returns 0x00 (0001ms, 0742ms total)
T556C 001:263 JLINK_ReadMemU32(0xE000ED00, 0x0001 Items, ...) -- CPU is running -- CPU_ReadMem(4 bytes @ 0xE000ED00) - Data: 00 C2 0C 41  returns 0x01 (0001ms, 0743ms total)
T556C 001:264 JLINK_SetResetType(JLINKARM_RESET_TYPE_NORMAL)  returns JLINKARM_RESET_TYPE_NORMAL (0000ms, 0743ms total)
T556C 001:264 JLINK_Reset() -- CPU_ReadMem(4 bytes @ 0x20000000) -- CPU_WriteMem(4 bytes @ 0x20000000) -- CPU is running -- CPU_WriteMem(4 bytes @ 0xE000EDF0) -- CPU is running -- CPU_WriteMem(4 bytes @ 0xE000EDFC) >0x35 TIF> -- CPU is running -- CPU_WriteMem(4 bytes @ 0xE000ED0C) -- CPU is running -- CPU_ReadMem(4 bytes @ 0xE000EDF0) -- CPU is running -- CPU_ReadMem(4 bytes @ 0xE000EDF0) -- CPU is running -- CPU_WriteMem(4 bytes @ 0xE000EDF0) -- CPU is running -- CPU_WriteMem(4 bytes @ 0xE000EDFC)
 -- CPU is running -- CPU_ReadMem(4 bytes @ 0xE000EDF0) -- CPU_WriteMem(4 bytes @ 0xE0002000) -- CPU_ReadMem(4 bytes @ 0xE000EDFC) -- CPU_ReadMem(4 bytes @ 0xE0001000) -- CPU_WriteMem(4 bytes @ 0xE0001000) (0029ms, 0772ms total)
T556C 001:293 JLINK_Halt()  returns 0x00 (0000ms, 0772ms total)
T556C 001:293 JLINK_IsHalted()  returns TRUE (0000ms, 0772ms total)
T556C 001:293 JLINK_ReadMemU32(0xE000EDF0, 0x0001 Items, ...) -- CPU_ReadMem(4 bytes @ 0xE000EDF0) - Data: 03 00 03 00  returns 0x01 (0001ms, 0773ms total)
T556C 001:294 JLINK_WriteU32(0xE000EDF0, 0xA05F0003) -- CPU_WriteMem(4 bytes @ 0xE000EDF0)  returns 0x00 (0001ms, 0774ms total)
T556C 001:295 JLINK_WriteU32(0xE000EDFC, 0x01000000) -- CPU_WriteMem(4 bytes @ 0xE000EDFC)  returns 0x00 (0001ms, 0775ms total)
T556C 001:316 JLINK_GetHWStatus(...)  returns 0x00 (0000ms, 0775ms total)
T556C 001:340 JLINK_GetNumBPUnits(Type = 0xFFFFFF00)  returns 0x04 (0000ms, 0775ms total)
T556C 001:340 JLINK_GetNumBPUnits(Type = 0xF0)  returns 0x2000 (0000ms, 0775ms total)
T556C 001:340 JLINK_GetNumWPUnits()  returns 0x02 (0000ms, 0775ms total)
T556C 001:356 JLINK_GetSpeed()  returns 0x1F4 (0000ms, 0775ms total)
T556C 001:366 JLINK_ReadMemU32(0xE000E004, 0x0001 Items, ...) -- CPU_ReadMem(4 bytes @ 0xE000E004) - Data: 00 00 00 00  returns 0x01 (0001ms, 0776ms total)
T556C 001:367 JLINK_Halt()  returns 0x00 (0000ms, 0776ms total)
T556C 001:367 JLINK_IsHalted()  returns TRUE (0000ms, 0776ms total)
T556C 001:374 JLINK_WriteMem(0x20000000, 0x0170 Bytes, ...) - Data: 00 BE 0A E0 0D 78 2D 06 68 40 08 24 40 00 00 D3 ... -- CPU_WriteMem(368 bytes @ 0x20000000)  returns 0x170 (0011ms, 0787ms total)
T556C 001:385 JLINK_WriteReg(R0, 0x08000000)  returns 0x00 (0000ms, 0787ms total)
T556C 001:385 JLINK_WriteReg(R1, 0x00B71B00)  returns 0x00 (0000ms, 0787ms total)
T556C 001:385 JLINK_WriteReg(R2, 0x00000001)  returns 0x00 (0000ms, 0787ms total)
T556C 001:385 JLINK_WriteReg(R3, 0x00000000)  returns 0x00 (0000ms, 0787ms total)
T556C 001:385 JLINK_WriteReg(R4, 0x00000000)  returns 0x00 (0000ms, 0787ms total)
T556C 001:385 JLINK_WriteReg(R5, 0x00000000)  returns 0x00 (0000ms, 0787ms total)
T556C 001:385 JLINK_WriteReg(R6, 0x00000000)  returns 0x00 (0000ms, 0787ms total)
T556C 001:385 JLINK_WriteReg(R7, 0x00000000)  returns 0x00 (0000ms, 0787ms total)
T556C 001:385 JLINK_WriteReg(R8, 0x00000000)  returns 0x00 (0000ms, 0787ms total)
T556C 001:385 JLINK_WriteReg(R9, 0x2000016C)  returns 0x00 (0000ms, 0787ms total)
T556C 001:385 JLINK_WriteReg(R10, 0x00000000)  returns 0x00 (0000ms, 0787ms total)
T556C 001:385 JLINK_WriteReg(R11, 0x00000000)  returns 0x00 (0000ms, 0787ms total)
T556C 001:385 JLINK_WriteReg(R12, 0x00000000)  returns 0x00 (0000ms, 0787ms total)
T556C 001:385 JLINK_WriteReg(R13 (SP), 0x20001000)  returns 0x00 (0000ms, 0787ms total)
T556C 001:385 JLINK_WriteReg(R14, 0x20000001)  returns 0x00 (0000ms, 0787ms total)
T556C 001:385 JLINK_WriteReg(R15 (PC), 0x20000038)  returns 0x00 (0000ms, 0787ms total)
T556C 001:385 JLINK_WriteReg(XPSR, 0x01000000)  returns 0x00 (0000ms, 0787ms total)
T556C 001:385 JLINK_WriteReg(MSP, 0x20001000)  returns 0x00 (0000ms, 0787ms total)
T556C 001:385 JLINK_WriteReg(PSP, 0x20001000)  returns 0x00 (0000ms, 0787ms total)
T556C 001:385 JLINK_WriteReg(CFBP, 0x00000000)  returns 0x00 (0000ms, 0787ms total)
T556C 001:385 JLINK_SetBPEx(Addr = 0x20000000, Type = 0xFFFFFFF2) -- CPU_ReadMem(2 bytes @ 0x20000000)  returns 0x00000001 (0001ms, 0788ms total)
T556C 001:386 JLINK_Go() -- CPU_WriteMem(2 bytes @ 0x20000000) -- CPU_WriteMem(4 bytes @ 0xE0002008) -- CPU_WriteMem(4 bytes @ 0xE000200C) -- CPU_WriteMem(4 bytes @ 0xE0002010) -- CPU_WriteMem(4 bytes @ 0xE0002014) -- CPU_WriteMem(4 bytes @ 0xE0001004) (0012ms, 0800ms total)
T556C 001:398 JLINK_IsHalted() -- CPU_ReadMem(2 bytes @ 0x20000000)  returns TRUE (0008ms, 0808ms total)
T556C 001:406 JLINK_ReadReg(R15 (PC))  returns 0x20000000 (0000ms, 0800ms total)
T556C 001:406 JLINK_ClrBPEx(BPHandle = 0x00000001)  returns 0x00 (0000ms, 0800ms total)
T556C 001:406 JLINK_ReadReg(R0)  returns 0x00000000 (0000ms, 0800ms total)
T556C 001:406 JLINK_WriteReg(R0, 0x08000000)  returns 0x00 (0000ms, 0800ms total)
T556C 001:406 JLINK_WriteReg(R1, 0x00B71B00)  returns 0x00 (0000ms, 0800ms total)
T556C 001:406 JLINK_WriteReg(R2, 0x00000001)  returns 0x00 (0000ms, 0800ms total)
T556C 001:406 JLINK_WriteReg(R3, 0x00000000)  returns 0x00 (0000ms, 0800ms total)
T556C 001:406 JLINK_WriteReg(R4, 0x00000000)  returns 0x00 (0001ms, 0801ms total)
T556C 001:407 JLINK_WriteReg(R5, 0x00000000)  returns 0x00 (0000ms, 0801ms total)
T556C 001:407 JLINK_WriteReg(R6, 0x00000000)  returns 0x00 (0000ms, 0801ms total)
T556C 001:407 JLINK_WriteReg(R7, 0x00000000)  returns 0x00 (0000ms, 0801ms total)
T556C 001:407 JLINK_WriteReg(R8, 0x00000000)  returns 0x00 (0000ms, 0801ms total)
T556C 001:407 JLINK_WriteReg(R9, 0x2000016C)  returns 0x00 (0000ms, 0801ms total)
T556C 001:407 JLINK_WriteReg(R10, 0x00000000)  returns 0x00 (0000ms, 0801ms total)
T556C 001:407 JLINK_WriteReg(R11, 0x00000000)  returns 0x00 (0000ms, 0801ms total)
T556C 001:407 JLINK_WriteReg(R12, 0x00000000)  returns 0x00 (0000ms, 0801ms total)
T556C 001:407 JLINK_WriteReg(R13 (SP), 0x20001000)  returns 0x00 (0000ms, 0801ms total)
T556C 001:407 JLINK_WriteReg(R14, 0x20000001)  returns 0x00 (0000ms, 0801ms total)
T556C 001:407 JLINK_WriteReg(R15 (PC), 0x20000074)  returns 0x00 (0000ms, 0801ms total)
T556C 001:407 JLINK_WriteReg(XPSR, 0x01000000)  returns 0x00 (0000ms, 0801ms total)
T556C 001:407 JLINK_WriteReg(MSP, 0x20001000)  returns 0x00 (0000ms, 0801ms total)
T556C 001:407 JLINK_WriteReg(PSP, 0x20001000)  returns 0x00 (0000ms, 0801ms total)
T556C 001:407 JLINK_WriteReg(CFBP, 0x00000000)  returns 0x00 (0000ms, 0801ms total)
T556C 001:407 JLINK_SetBPEx(Addr = 0x20000000, Type = 0xFFFFFFF2)  returns 0x00000002 (0000ms, 0801ms total)
T556C 001:407 JLINK_Go() (0003ms, 0804ms total)
T556C 001:410 JLINK_IsHalted()  returns FALSE (0001ms, 0805ms total)
T556C 001:496 JLINK_IsHalted() -- CPU_ReadMem(2 bytes @ 0x20000000)  returns TRUE (0009ms, 0813ms total)
T556C 001:505 JLINK_ReadReg(R15 (PC))  returns 0x20000000 (0000ms, 0804ms total)
T556C 001:505 JLINK_ClrBPEx(BPHandle = 0x00000002)  returns 0x00 (0000ms, 0804ms total)
T556C 001:505 JLINK_ReadReg(R0)  returns 0x00000000 (0000ms, 0804ms total)
T556C 001:557 JLINK_WriteReg(R0, 0x00000001)  returns 0x00 (0000ms, 0804ms total)
T556C 001:557 JLINK_WriteReg(R1, 0x00B71B00)  returns 0x00 (0000ms, 0804ms total)
T556C 001:557 JLINK_WriteReg(R2, 0x00000001)  returns 0x00 (0000ms, 0804ms total)
T556C 001:557 JLINK_WriteReg(R3, 0x00000000)  returns 0x00 (0001ms, 0805ms total)
T556C 001:558 JLINK_WriteReg(R4, 0x00000000)  returns 0x00 (0000ms, 0805ms total)
T556C 001:558 JLINK_WriteReg(R5, 0x00000000)  returns 0x00 (0000ms, 0805ms total)
T556C 001:558 JLINK_WriteReg(R6, 0x00000000)  returns 0x00 (0000ms, 0805ms total)
T556C 001:558 JLINK_WriteReg(R7, 0x00000000)  returns 0x00 (0000ms, 0805ms total)
T556C 001:558 JLINK_WriteReg(R8, 0x00000000)  returns 0x00 (0000ms, 0805ms total)
T556C 001:558 JLINK_WriteReg(R9, 0x2000016C)  returns 0x00 (0000ms, 0805ms total)
T556C 001:558 JLINK_WriteReg(R10, 0x00000000)  returns 0x00 (0000ms, 0805ms total)
T556C 001:558 JLINK_WriteReg(R11, 0x00000000)  returns 0x00 (0000ms, 0805ms total)
T556C 001:558 JLINK_WriteReg(R12, 0x00000000)  returns 0x00 (0000ms, 0805ms total)
T556C 001:558 JLINK_WriteReg(R13 (SP), 0x20001000)  returns 0x00 (0000ms, 0805ms total)
T556C 001:558 JLINK_WriteReg(R14, 0x20000001)  returns 0x00 (0000ms, 0805ms total)
T556C 001:558 JLINK_WriteReg(R15 (PC), 0x20000066)  returns 0x00 (0000ms, 0805ms total)
T556C 001:558 JLINK_WriteReg(XPSR, 0x01000000)  returns 0x00 (0000ms, 0805ms total)
T556C 001:558 JLINK_WriteReg(MSP, 0x20001000)  returns 0x00 (0000ms, 0805ms total)
T556C 001:558 JLINK_WriteReg(PSP, 0x20001000)  returns 0x00 (0000ms, 0805ms total)
T556C 001:558 JLINK_WriteReg(CFBP, 0x00000000)  returns 0x00 (0000ms, 0805ms total)
T556C 001:558 JLINK_SetBPEx(Addr = 0x20000000, Type = 0xFFFFFFF2)  returns 0x00000003 (0000ms, 0805ms total)
T556C 001:558 JLINK_Go() (0003ms, 0808ms total)
T556C 001:561 JLINK_IsHalted() -- CPU_ReadMem(2 bytes @ 0x20000000)  returns TRUE (0008ms, 0816ms total)
T556C 001:569 JLINK_ReadReg(R15 (PC))  returns 0x20000000 (0000ms, 0808ms total)
T556C 001:569 JLINK_ClrBPEx(BPHandle = 0x00000003)  returns 0x00 (0000ms, 0808ms total)
T556C 001:569 JLINK_ReadReg(R0)  returns 0x00000000 (0000ms, 0808ms total)
T556C 001:583 JLINK_WriteMem(0x20000000, 0x0170 Bytes, ...) - Data: 00 BE 0A E0 0D 78 2D 06 68 40 08 24 40 00 00 D3 ... -- CPU_WriteMem(368 bytes @ 0x20000000)  returns 0x170 (0011ms, 0819ms total)
T556C 001:594 JLINK_WriteReg(R0, 0x08000000)  returns 0x00 (0000ms, 0819ms total)
T556C 001:594 JLINK_WriteReg(R1, 0x00B71B00)  returns 0x00 (0000ms, 0819ms total)
T556C 001:594 JLINK_WriteReg(R2, 0x00000002)  returns 0x00 (0000ms, 0819ms total)
T556C 001:594 JLINK_WriteReg(R3, 0x00000000)  returns 0x00 (0000ms, 0819ms total)
T556C 001:594 JLINK_WriteReg(R4, 0x00000000)  returns 0x00 (0000ms, 0819ms total)
T556C 001:594 JLINK_WriteReg(R5, 0x00000000)  returns 0x00 (0000ms, 0819ms total)
T556C 001:594 JLINK_WriteReg(R6, 0x00000000)  returns 0x00 (0000ms, 0819ms total)
T556C 001:594 JLINK_WriteReg(R7, 0x00000000)  returns 0x00 (0000ms, 0819ms total)
T556C 001:594 JLINK_WriteReg(R8, 0x00000000)  returns 0x00 (0000ms, 0819ms total)
T556C 001:594 JLINK_WriteReg(R9, 0x2000016C)  returns 0x00 (0000ms, 0819ms total)
T556C 001:594 JLINK_WriteReg(R10, 0x00000000)  returns 0x00 (0000ms, 0819ms total)
T556C 001:594 JLINK_WriteReg(R11, 0x00000000)  returns 0x00 (0000ms, 0819ms total)
T556C 001:594 JLINK_WriteReg(R12, 0x00000000)  returns 0x00 (0000ms, 0819ms total)
T556C 001:594 JLINK_WriteReg(R13 (SP), 0x20001000)  returns 0x00 (0000ms, 0819ms total)
T556C 001:594 JLINK_WriteReg(R14, 0x20000001)  returns 0x00 (0000ms, 0819ms total)
T556C 001:594 JLINK_WriteReg(R15 (PC), 0x20000038)  returns 0x00 (0000ms, 0819ms total)
T556C 001:594 JLINK_WriteReg(XPSR, 0x01000000)  returns 0x00 (0000ms, 0819ms total)
T556C 001:594 JLINK_WriteReg(MSP, 0x20001000)  returns 0x00 (0000ms, 0819ms total)
T556C 001:594 JLINK_WriteReg(PSP, 0x20001000)  returns 0x00 (0000ms, 0819ms total)
T556C 001:594 JLINK_WriteReg(CFBP, 0x00000000)  returns 0x00 (0000ms, 0819ms total)
T556C 001:594 JLINK_SetBPEx(Addr = 0x20000000, Type = 0xFFFFFFF2) -- CPU_ReadMem(2 bytes @ 0x20000000)  returns 0x00000004 (0001ms, 0820ms total)
T556C 001:595 JLINK_Go() -- CPU_WriteMem(2 bytes @ 0x20000000) (0004ms, 0824ms total)
T556C 001:599 JLINK_IsHalted() -- CPU_ReadMem(2 bytes @ 0x20000000)  returns TRUE (0009ms, 0833ms total)
T556C 001:608 JLINK_ReadReg(R15 (PC))  returns 0x20000000 (0000ms, 0824ms total)
T556C 001:608 JLINK_ClrBPEx(BPHandle = 0x00000004)  returns 0x00 (0000ms, 0824ms total)
T556C 001:608 JLINK_ReadReg(R0)  returns 0x00000000 (0000ms, 0824ms total)
T556C 001:608 JLINK_WriteMem(0x20000170, 0x0290 Bytes, ...) - Data: 30 0D 00 20 C9 00 00 08 75 46 00 08 91 38 00 08 ... -- CPU_WriteMem(656 bytes @ 0x20000170)  returns 0x290 (0018ms, 0842ms total)
T556C 001:626 JLINK_WriteMem(0x20000400, 0x0170 Bytes, ...) - Data: C8 03 00 20 01 46 05 4A 00 20 03 E0 13 5C 0B 54 ... -- CPU_WriteMem(368 bytes @ 0x20000400)  returns 0x170 (0011ms, 0853ms total)
T556C 001:637 JLINK_WriteReg(R0, 0x08000000)  returns 0x00 (0000ms, 0853ms total)
T556C 001:637 JLINK_WriteReg(R1, 0x00000400)  returns 0x00 (0000ms, 0853ms total)
T556C 001:637 JLINK_WriteReg(R2, 0x20000170)  returns 0x00 (0000ms, 0853ms total)
T556C 001:637 JLINK_WriteReg(R3, 0x00000000)  returns 0x00 (0000ms, 0853ms total)
T556C 001:637 JLINK_WriteReg(R4, 0x00000000)  returns 0x00 (0000ms, 0853ms total)
T556C 001:637 JLINK_WriteReg(R5, 0x00000000)  returns 0x00 (0000ms, 0853ms total)
T556C 001:637 JLINK_WriteReg(R6, 0x00000000)  returns 0x00 (0000ms, 0853ms total)
T556C 001:637 JLINK_WriteReg(R7, 0x00000000)  returns 0x00 (0000ms, 0853ms total)
T556C 001:637 JLINK_WriteReg(R8, 0x00000000)  returns 0x00 (0000ms, 0853ms total)
T556C 001:637 JLINK_WriteReg(R9, 0x2000016C)  returns 0x00 (0000ms, 0853ms total)
T556C 001:637 JLINK_WriteReg(R10, 0x00000000)  returns 0x00 (0000ms, 0853ms total)
T556C 001:637 JLINK_WriteReg(R11, 0x00000000)  returns 0x00 (0000ms, 0853ms total)
T556C 001:637 JLINK_WriteReg(R12, 0x00000000)  returns 0x00 (0000ms, 0853ms total)
T556C 001:637 JLINK_WriteReg(R13 (SP), 0x20001000)  returns 0x00 (0000ms, 0853ms total)
T556C 001:637 JLINK_WriteReg(R14, 0x20000001)  returns 0x00 (0000ms, 0853ms total)
T556C 001:637 JLINK_WriteReg(R15 (PC), 0x200000FA)  returns 0x00 (0000ms, 0853ms total)
T556C 001:637 JLINK_WriteReg(XPSR, 0x01000000)  returns 0x00 (0000ms, 0853ms total)
T556C 001:637 JLINK_WriteReg(MSP, 0x20001000)  returns 0x00 (0000ms, 0853ms total)
T556C 001:637 JLINK_WriteReg(PSP, 0x20001000)  returns 0x00 (0000ms, 0853ms total)
T556C 001:637 JLINK_WriteReg(CFBP, 0x00000000)  returns 0x00 (0000ms, 0853ms total)
T556C 001:637 JLINK_SetBPEx(Addr = 0x20000000, Type = 0xFFFFFFF2)  returns 0x00000005 (0000ms, 0853ms total)
T556C 001:637 JLINK_Go() (0003ms, 0856ms total)
T556C 001:640 JLINK_IsHalted()  returns FALSE (0001ms, 0857ms total)
T556C 001:663 JLINK_IsHalted()  returns FALSE (0000ms, 0856ms total)
T556C 001:667 JLINK_IsHalted()  returns FALSE (0000ms, 0856ms total)
T556C 001:671 JLINK_IsHalted() -- CPU_ReadMem(2 bytes @ 0x20000000)  returns TRUE (0008ms, 0864ms total)
T556C 001:679 JLINK_ReadReg(R15 (PC))  returns 0x20000000 (0000ms, 0856ms total)
T556C 001:679 JLINK_ClrBPEx(BPHandle = 0x00000005)  returns 0x00 (0000ms, 0856ms total)
T556C 001:679 JLINK_ReadReg(R0)  returns 0x00000000 (0000ms, 0856ms total)
T556C 001:680 JLINK_WriteMem(0x20000170, 0x0290 Bytes, ...) - Data: 20 50 43 5F 63 6F 6D 6D 61 6E 64 3D 25 64 2C 20 ... -- CPU_WriteMem(656 bytes @ 0x20000170)  returns 0x290 (0018ms, 0874ms total)
T556C 001:698 JLINK_WriteMem(0x20000400, 0x0170 Bytes, ...) - Data: 50 FD 32 49 89 1F 00 20 05 F0 2E FD 2F 49 89 1F ... -- CPU_WriteMem(368 bytes @ 0x20000400)  returns 0x170 (0010ms, 0884ms total)
T556C 001:708 JLINK_WriteReg(R0, 0x08000400)  returns 0x00 (0000ms, 0884ms total)
T556C 001:708 JLINK_WriteReg(R1, 0x00000400)  returns 0x00 (0000ms, 0884ms total)
T556C 001:708 JLINK_WriteReg(R2, 0x20000170)  returns 0x00 (0000ms, 0884ms total)
T556C 001:708 JLINK_WriteReg(R3, 0x00000000)  returns 0x00 (0000ms, 0884ms total)
T556C 001:708 JLINK_WriteReg(R4, 0x00000000)  returns 0x00 (0000ms, 0884ms total)
T556C 001:708 JLINK_WriteReg(R5, 0x00000000)  returns 0x00 (0000ms, 0884ms total)
T556C 001:708 JLINK_WriteReg(R6, 0x00000000)  returns 0x00 (0000ms, 0884ms total)
T556C 001:708 JLINK_WriteReg(R7, 0x00000000)  returns 0x00 (0000ms, 0884ms total)
T556C 001:708 JLINK_WriteReg(R8, 0x00000000)  returns 0x00 (0000ms, 0884ms total)
T556C 001:708 JLINK_WriteReg(R9, 0x2000016C)  returns 0x00 (0000ms, 0884ms total)
T556C 001:708 JLINK_WriteReg(R10, 0x00000000)  returns 0x00 (0000ms, 0884ms total)
T556C 001:708 JLINK_WriteReg(R11, 0x00000000)  returns 0x00 (0000ms, 0884ms total)
T556C 001:708 JLINK_WriteReg(R12, 0x00000000)  returns 0x00 (0000ms, 0884ms total)
T556C 001:708 JLINK_WriteReg(R13 (SP), 0x20001000)  returns 0x00 (0000ms, 0884ms total)
T556C 001:708 JLINK_WriteReg(R14, 0x20000001)  returns 0x00 (0000ms, 0884ms total)
T556C 001:709 JLINK_WriteReg(R15 (PC), 0x200000FA)  returns 0x00 (0000ms, 0885ms total)
T556C 001:709 JLINK_WriteReg(XPSR, 0x01000000)  returns 0x00 (0000ms, 0885ms total)
T556C 001:709 JLINK_WriteReg(MSP, 0x20001000)  returns 0x00 (0000ms, 0885ms total)
T556C 001:709 JLINK_WriteReg(PSP, 0x20001000)  returns 0x00 (0000ms, 0885ms total)
T556C 001:709 JLINK_WriteReg(CFBP, 0x00000000)  returns 0x00 (0000ms, 0885ms total)
T556C 001:709 JLINK_SetBPEx(Addr = 0x20000000, Type = 0xFFFFFFF2)  returns 0x00000006 (0000ms, 0885ms total)
T556C 001:709 JLINK_Go() (0003ms, 0888ms total)
T556C 001:712 JLINK_IsHalted()  returns FALSE (0001ms, 0889ms total)
T556C 001:723 JLINK_IsHalted()  returns FALSE (0000ms, 0888ms total)
T556C 001:726 JLINK_IsHalted()  returns FALSE (0000ms, 0888ms total)
T556C 001:729 JLINK_IsHalted()  returns FALSE (0000ms, 0888ms total)
T556C 001:732 JLINK_IsHalted()  returns FALSE (0000ms, 0888ms total)
T556C 001:734 JLINK_IsHalted()  returns FALSE (0000ms, 0888ms total)
T556C 001:739 JLINK_IsHalted()  returns FALSE (0000ms, 0888ms total)
T556C 001:742 JLINK_IsHalted() -- CPU_ReadMem(2 bytes @ 0x20000000)  returns TRUE (0008ms, 0896ms total)
T556C 001:750 JLINK_ReadReg(R15 (PC))  returns 0x20000000 (0000ms, 0888ms total)
T556C 001:750 JLINK_ClrBPEx(BPHandle = 0x00000006)  returns 0x00 (0000ms, 0888ms total)
T556C 001:750 JLINK_ReadReg(R0)  returns 0x00000000 (0000ms, 0888ms total)
T556C 001:752 JLINK_WriteMem(0x20000170, 0x0290 Bytes, ...) - Data: 58 3A 25 30 32 58 0D 0A 00 00 00 00 47 41 52 3A ... -- CPU_WriteMem(656 bytes @ 0x20000170)  returns 0x290 (0018ms, 0906ms total)
T556C 001:770 JLINK_WriteMem(0x20000400, 0x0170 Bytes, ...) - Data: F8 DC 01 20 AF E7 04 22 36 A1 60 1C FF F7 5B FB ... -- CPU_WriteMem(368 bytes @ 0x20000400)  returns 0x170 (0011ms, 0917ms total)
T556C 001:781 JLINK_WriteReg(R0, 0x08000800)  returns 0x00 (0000ms, 0917ms total)
T556C 001:781 JLINK_WriteReg(R1, 0x00000400)  returns 0x00 (0000ms, 0917ms total)
T556C 001:781 JLINK_WriteReg(R2, 0x20000170)  returns 0x00 (0000ms, 0917ms total)
T556C 001:781 JLINK_WriteReg(R3, 0x00000000)  returns 0x00 (0000ms, 0917ms total)
T556C 001:781 JLINK_WriteReg(R4, 0x00000000)  returns 0x00 (0000ms, 0917ms total)
T556C 001:781 JLINK_WriteReg(R5, 0x00000000)  returns 0x00 (0000ms, 0917ms total)
T556C 001:781 JLINK_WriteReg(R6, 0x00000000)  returns 0x00 (0000ms, 0917ms total)
T556C 001:781 JLINK_WriteReg(R7, 0x00000000)  returns 0x00 (0000ms, 0917ms total)
T556C 001:781 JLINK_WriteReg(R8, 0x00000000)  returns 0x00 (0000ms, 0917ms total)
T556C 001:781 JLINK_WriteReg(R9, 0x2000016C)  returns 0x00 (0000ms, 0917ms total)
T556C 001:781 JLINK_WriteReg(R10, 0x00000000)  returns 0x00 (0000ms, 0917ms total)
T556C 001:781 JLINK_WriteReg(R11, 0x00000000)  returns 0x00 (0000ms, 0917ms total)
T556C 001:781 JLINK_WriteReg(R12, 0x00000000)  returns 0x00 (0000ms, 0917ms total)
T556C 001:781 JLINK_WriteReg(R13 (SP), 0x20001000)  returns 0x00 (0000ms, 0917ms total)
T556C 001:781 JLINK_WriteReg(R14, 0x20000001)  returns 0x00 (0000ms, 0917ms total)
T556C 001:781 JLINK_WriteReg(R15 (PC), 0x200000FA)  returns 0x00 (0000ms, 0917ms total)
T556C 001:781 JLINK_WriteReg(XPSR, 0x01000000)  returns 0x00 (0000ms, 0917ms total)
T556C 001:781 JLINK_WriteReg(MSP, 0x20001000)  returns 0x00 (0000ms, 0917ms total)
T556C 001:781 JLINK_WriteReg(PSP, 0x20001000)  returns 0x00 (0000ms, 0917ms total)
T556C 001:781 JLINK_WriteReg(CFBP, 0x00000000)  returns 0x00 (0000ms, 0917ms total)
T556C 001:781 JLINK_SetBPEx(Addr = 0x20000000, Type = 0xFFFFFFF2)  returns 0x00000007 (0000ms, 0917ms total)
T556C 001:781 JLINK_Go() (0004ms, 0921ms total)
T556C 001:785 JLINK_IsHalted()  returns FALSE (0001ms, 0922ms total)
T556C 001:803 JLINK_IsHalted()  returns FALSE (0000ms, 0921ms total)
T556C 001:828 JLINK_IsHalted() -- CPU_ReadMem(2 bytes @ 0x20000000)  returns TRUE (0008ms, 0929ms total)
T556C 001:836 JLINK_ReadReg(R15 (PC))  returns 0x20000000 (0000ms, 0921ms total)
T556C 001:836 JLINK_ClrBPEx(BPHandle = 0x00000007)  returns 0x00 (0000ms, 0921ms total)
T556C 001:836 JLINK_ReadReg(R0)  returns 0x00000000 (0000ms, 0921ms total)
T556C 001:837 JLINK_WriteMem(0x20000170, 0x0290 Bytes, ...) - Data: 08 46 04 B0 10 BD 00 00 00 00 00 20 00 B5 08 21 ... -- CPU_WriteMem(656 bytes @ 0x20000170)  returns 0x290 (0018ms, 0939ms total)
T556C 001:855 JLINK_WriteMem(0x20000400, 0x0170 Bytes, ...) - Data: 9C E7 23 E0 21 46 43 A0 04 F0 56 FE 00 23 01 21 ... -- CPU_WriteMem(368 bytes @ 0x20000400)  returns 0x170 (0010ms, 0949ms total)
T556C 001:866 JLINK_WriteReg(R0, 0x08000C00)  returns 0x00 (0000ms, 0949ms total)
T556C 001:866 JLINK_WriteReg(R1, 0x00000400)  returns 0x00 (0000ms, 0949ms total)
T556C 001:866 JLINK_WriteReg(R2, 0x20000170)  returns 0x00 (0000ms, 0949ms total)
T556C 001:866 JLINK_WriteReg(R3, 0x00000000)  returns 0x00 (0000ms, 0949ms total)
T556C 001:866 JLINK_WriteReg(R4, 0x00000000)  returns 0x00 (0000ms, 0949ms total)
T556C 001:866 JLINK_WriteReg(R5, 0x00000000)  returns 0x00 (0000ms, 0949ms total)
T556C 001:866 JLINK_WriteReg(R6, 0x00000000)  returns 0x00 (0000ms, 0949ms total)
T556C 001:866 JLINK_WriteReg(R7, 0x00000000)  returns 0x00 (0000ms, 0949ms total)
T556C 001:866 JLINK_WriteReg(R8, 0x00000000)  returns 0x00 (0000ms, 0949ms total)
T556C 001:866 JLINK_WriteReg(R9, 0x2000016C)  returns 0x00 (0000ms, 0949ms total)
T556C 001:866 JLINK_WriteReg(R10, 0x00000000)  returns 0x00 (0000ms, 0949ms total)
T556C 001:866 JLINK_WriteReg(R11, 0x00000000)  returns 0x00 (0000ms, 0949ms total)
T556C 001:866 JLINK_WriteReg(R12, 0x00000000)  returns 0x00 (0000ms, 0949ms total)
T556C 001:866 JLINK_WriteReg(R13 (SP), 0x20001000)  returns 0x00 (0000ms, 0949ms total)
T556C 001:866 JLINK_WriteReg(R14, 0x20000001)  returns 0x00 (0000ms, 0949ms total)
T556C 001:866 JLINK_WriteReg(R15 (PC), 0x200000FA)  returns 0x00 (0000ms, 0949ms total)
T556C 001:866 JLINK_WriteReg(XPSR, 0x01000000)  returns 0x00 (0000ms, 0949ms total)
T556C 001:866 JLINK_WriteReg(MSP, 0x20001000)  returns 0x00 (0000ms, 0949ms total)
T556C 001:866 JLINK_WriteReg(PSP, 0x20001000)  returns 0x00 (0000ms, 0949ms total)
T556C 001:866 JLINK_WriteReg(CFBP, 0x00000000)  returns 0x00 (0000ms, 0949ms total)
T556C 001:866 JLINK_SetBPEx(Addr = 0x20000000, Type = 0xFFFFFFF2)  returns 0x00000008 (0000ms, 0949ms total)
T556C 001:866 JLINK_Go() (0003ms, 0952ms total)
T556C 001:869 JLINK_IsHalted()  returns FALSE (0001ms, 0953ms total)
T556C 001:874 JLINK_IsHalted()  returns FALSE (0000ms, 0952ms total)
T556C 001:876 JLINK_IsHalted()  returns FALSE (0000ms, 0952ms total)
T556C 001:878 JLINK_IsHalted()  returns FALSE (0000ms, 0952ms total)
T556C 001:880 JLINK_IsHalted()  returns FALSE (0000ms, 0952ms total)
T556C 001:882 JLINK_IsHalted()  returns FALSE (0000ms, 0952ms total)
T556C 001:885 JLINK_IsHalted()  returns FALSE (0000ms, 0952ms total)
T556C 001:887 JLINK_IsHalted()  returns FALSE (0000ms, 0952ms total)
T556C 001:889 JLINK_IsHalted()  returns FALSE (0000ms, 0952ms total)
T556C 001:896 JLINK_IsHalted()  returns FALSE (0000ms, 0952ms total)
T556C 001:898 JLINK_IsHalted()  returns FALSE (0000ms, 0952ms total)
T556C 001:900 JLINK_IsHalted() -- CPU_ReadMem(2 bytes @ 0x20000000)  returns TRUE (0008ms, 0960ms total)
T556C 001:908 JLINK_ReadReg(R15 (PC))  returns 0x20000000 (0000ms, 0952ms total)
T556C 001:908 JLINK_ClrBPEx(BPHandle = 0x00000008)  returns 0x00 (0000ms, 0952ms total)
T556C 001:908 JLINK_ReadReg(R0)  returns 0x00000000 (0000ms, 0952ms total)
T556C 001:909 JLINK_WriteMem(0x20000170, 0x0290 Bytes, ...) - Data: 00 BF FE E7 00 20 07 49 C8 61 07 48 00 69 04 21 ... -- CPU_WriteMem(656 bytes @ 0x20000170)  returns 0x290 (0018ms, 0970ms total)
T556C 001:927 JLINK_WriteMem(0x20000400, 0x0170 Bytes, ...) - Data: 80 02 2D 18 A0 68 80 02 61 68 40 18 A8 42 E5 D8 ... -- CPU_WriteMem(368 bytes @ 0x20000400)  returns 0x170 (0010ms, 0980ms total)
T556C 001:938 JLINK_WriteReg(R0, 0x08001000)  returns 0x00 (0000ms, 0980ms total)
T556C 001:938 JLINK_WriteReg(R1, 0x00000400)  returns 0x00 (0000ms, 0980ms total)
T556C 001:938 JLINK_WriteReg(R2, 0x20000170)  returns 0x00 (0000ms, 0980ms total)
T556C 001:938 JLINK_WriteReg(R3, 0x00000000)  returns 0x00 (0000ms, 0980ms total)
T556C 001:938 JLINK_WriteReg(R4, 0x00000000)  returns 0x00 (0000ms, 0980ms total)
T556C 001:938 JLINK_WriteReg(R5, 0x00000000)  returns 0x00 (0000ms, 0980ms total)
T556C 001:938 JLINK_WriteReg(R6, 0x00000000)  returns 0x00 (0000ms, 0980ms total)
T556C 001:938 JLINK_WriteReg(R7, 0x00000000)  returns 0x00 (0000ms, 0980ms total)
T556C 001:938 JLINK_WriteReg(R8, 0x00000000)  returns 0x00 (0000ms, 0980ms total)
T556C 001:938 JLINK_WriteReg(R9, 0x2000016C)  returns 0x00 (0000ms, 0980ms total)
T556C 001:938 JLINK_WriteReg(R10, 0x00000000)  returns 0x00 (0000ms, 0980ms total)
T556C 001:938 JLINK_WriteReg(R11, 0x00000000)  returns 0x00 (0000ms, 0980ms total)
T556C 001:938 JLINK_WriteReg(R12, 0x00000000)  returns 0x00 (0000ms, 0980ms total)
T556C 001:938 JLINK_WriteReg(R13 (SP), 0x20001000)  returns 0x00 (0000ms, 0980ms total)
T556C 001:938 JLINK_WriteReg(R14, 0x20000001)  returns 0x00 (0000ms, 0980ms total)
T556C 001:938 JLINK_WriteReg(R15 (PC), 0x200000FA)  returns 0x00 (0000ms, 0980ms total)
T556C 001:938 JLINK_WriteReg(XPSR, 0x01000000)  returns 0x00 (0000ms, 0980ms total)
T556C 001:938 JLINK_WriteReg(MSP, 0x20001000)  returns 0x00 (0000ms, 0980ms total)
T556C 001:938 JLINK_WriteReg(PSP, 0x20001000)  returns 0x00 (0000ms, 0980ms total)
T556C 001:938 JLINK_WriteReg(CFBP, 0x00000000)  returns 0x00 (0000ms, 0980ms total)
T556C 001:938 JLINK_SetBPEx(Addr = 0x20000000, Type = 0xFFFFFFF2)  returns 0x00000009 (0000ms, 0980ms total)
T556C 001:938 JLINK_Go() (0003ms, 0983ms total)
T556C 001:941 JLINK_IsHalted()  returns FALSE (0001ms, 0984ms total)
T556C 001:955 JLINK_IsHalted()  returns FALSE (0000ms, 0983ms total)
T556C 001:957 JLINK_IsHalted()  returns FALSE (0000ms, 0983ms total)
T556C 001:961 JLINK_IsHalted()  returns FALSE (0000ms, 0983ms total)
T556C 001:963 JLINK_IsHalted()  returns FALSE (0000ms, 0983ms total)
T556C 001:965 JLINK_IsHalted()  returns FALSE (0000ms, 0983ms total)
T556C 001:969 JLINK_IsHalted()  returns FALSE (0000ms, 0983ms total)
T556C 001:971 JLINK_IsHalted() -- CPU_ReadMem(2 bytes @ 0x20000000)  returns TRUE (0008ms, 0991ms total)
T556C 001:979 JLINK_ReadReg(R15 (PC))  returns 0x20000000 (0000ms, 0983ms total)
T556C 001:979 JLINK_ClrBPEx(BPHandle = 0x00000009)  returns 0x00 (0000ms, 0983ms total)
T556C 001:979 JLINK_ReadReg(R0)  returns 0x00000000 (0000ms, 0983ms total)
T556C 001:980 JLINK_WriteMem(0x20000170, 0x0290 Bytes, ...) - Data: D5 08 AD 00 1E 46 20 36 70 51 18 68 56 00 03 25 ... -- CPU_WriteMem(656 bytes @ 0x20000170)  returns 0x290 (0018ms, 1001ms total)
T556C 001:998 JLINK_WriteMem(0x20000400, 0x0170 Bytes, ...) - Data: 01 D0 01 20 70 BD 02 21 20 68 08 40 02 28 07 D1 ... -- CPU_WriteMem(368 bytes @ 0x20000400)  returns 0x170 (0010ms, 1011ms total)
T556C 002:008 JLINK_WriteReg(R0, 0x08001400)  returns 0x00 (0000ms, 1011ms total)
T556C 002:008 JLINK_WriteReg(R1, 0x00000400)  returns 0x00 (0000ms, 1011ms total)
T556C 002:008 JLINK_WriteReg(R2, 0x20000170)  returns 0x00 (0000ms, 1011ms total)
T556C 002:008 JLINK_WriteReg(R3, 0x00000000)  returns 0x00 (0000ms, 1011ms total)
T556C 002:008 JLINK_WriteReg(R4, 0x00000000)  returns 0x00 (0000ms, 1011ms total)
T556C 002:009 JLINK_WriteReg(R5, 0x00000000)  returns 0x00 (0000ms, 1012ms total)
T556C 002:009 JLINK_WriteReg(R6, 0x00000000)  returns 0x00 (0000ms, 1012ms total)
T556C 002:009 JLINK_WriteReg(R7, 0x00000000)  returns 0x00 (0000ms, 1012ms total)
T556C 002:009 JLINK_WriteReg(R8, 0x00000000)  returns 0x00 (0000ms, 1012ms total)
T556C 002:009 JLINK_WriteReg(R9, 0x2000016C)  returns 0x00 (0000ms, 1012ms total)
T556C 002:009 JLINK_WriteReg(R10, 0x00000000)  returns 0x00 (0000ms, 1012ms total)
T556C 002:009 JLINK_WriteReg(R11, 0x00000000)  returns 0x00 (0000ms, 1012ms total)
T556C 002:009 JLINK_WriteReg(R12, 0x00000000)  returns 0x00 (0000ms, 1012ms total)
T556C 002:009 JLINK_WriteReg(R13 (SP), 0x20001000)  returns 0x00 (0000ms, 1012ms total)
T556C 002:009 JLINK_WriteReg(R14, 0x20000001)  returns 0x00 (0000ms, 1012ms total)
T556C 002:009 JLINK_WriteReg(R15 (PC), 0x200000FA)  returns 0x00 (0000ms, 1012ms total)
T556C 002:009 JLINK_WriteReg(XPSR, 0x01000000)  returns 0x00 (0000ms, 1012ms total)
T556C 002:009 JLINK_WriteReg(MSP, 0x20001000)  returns 0x00 (0000ms, 1012ms total)
T556C 002:009 JLINK_WriteReg(PSP, 0x20001000)  returns 0x00 (0000ms, 1012ms total)
T556C 002:009 JLINK_WriteReg(CFBP, 0x00000000)  returns 0x00 (0000ms, 1012ms total)
T556C 002:009 JLINK_SetBPEx(Addr = 0x20000000, Type = 0xFFFFFFF2)  returns 0x0000000A (0000ms, 1012ms total)
T556C 002:009 JLINK_Go() (0003ms, 1015ms total)
T556C 002:012 JLINK_IsHalted()  returns FALSE (0001ms, 1016ms total)
T556C 002:025 JLINK_IsHalted()  returns FALSE (0000ms, 1015ms total)
T556C 002:027 JLINK_IsHalted()  returns FALSE (0000ms, 1015ms total)
T556C 002:030 JLINK_IsHalted()  returns FALSE (0000ms, 1015ms total)
T556C 002:032 JLINK_IsHalted()  returns FALSE (0000ms, 1015ms total)
T556C 002:034 JLINK_IsHalted()  returns FALSE (0000ms, 1015ms total)
T556C 002:036 JLINK_IsHalted()  returns FALSE (0000ms, 1015ms total)
T556C 002:039 JLINK_IsHalted()  returns FALSE (0000ms, 1015ms total)
T556C 002:041 JLINK_IsHalted()  returns FALSE (0000ms, 1015ms total)
T556C 002:043 JLINK_IsHalted() -- CPU_ReadMem(2 bytes @ 0x20000000)  returns TRUE (0008ms, 1023ms total)
T556C 002:051 JLINK_ReadReg(R15 (PC))  returns 0x20000000 (0000ms, 1015ms total)
T556C 002:051 JLINK_ClrBPEx(BPHandle = 0x0000000A)  returns 0x00 (0000ms, 1015ms total)
T556C 002:051 JLINK_ReadReg(R0)  returns 0x00000000 (0000ms, 1015ms total)
T556C 002:052 JLINK_WriteMem(0x20000170, 0x0290 Bytes, ...) - Data: AC 01 00 20 00 B5 FF F7 F7 FF 05 49 49 68 07 22 ... -- CPU_WriteMem(656 bytes @ 0x20000170)  returns 0x290 (0018ms, 1033ms total)
T556C 002:070 JLINK_WriteMem(0x20000400, 0x0170 Bytes, ...) - Data: F2 D0 94 48 00 68 F8 21 88 43 21 69 C9 00 08 43 ... -- CPU_WriteMem(368 bytes @ 0x20000400)  returns 0x170 (0010ms, 1043ms total)
T556C 002:080 JLINK_WriteReg(R0, 0x08001800)  returns 0x00 (0000ms, 1043ms total)
T556C 002:080 JLINK_WriteReg(R1, 0x00000400)  returns 0x00 (0000ms, 1043ms total)
T556C 002:080 JLINK_WriteReg(R2, 0x20000170)  returns 0x00 (0000ms, 1043ms total)
T556C 002:080 JLINK_WriteReg(R3, 0x00000000)  returns 0x00 (0000ms, 1043ms total)
T556C 002:080 JLINK_WriteReg(R4, 0x00000000)  returns 0x00 (0000ms, 1043ms total)
T556C 002:080 JLINK_WriteReg(R5, 0x00000000)  returns 0x00 (0000ms, 1043ms total)
T556C 002:080 JLINK_WriteReg(R6, 0x00000000)  returns 0x00 (0000ms, 1043ms total)
T556C 002:080 JLINK_WriteReg(R7, 0x00000000)  returns 0x00 (0000ms, 1043ms total)
T556C 002:080 JLINK_WriteReg(R8, 0x00000000)  returns 0x00 (0000ms, 1043ms total)
T556C 002:080 JLINK_WriteReg(R9, 0x2000016C)  returns 0x00 (0000ms, 1043ms total)
T556C 002:080 JLINK_WriteReg(R10, 0x00000000)  returns 0x00 (0000ms, 1043ms total)
T556C 002:080 JLINK_WriteReg(R11, 0x00000000)  returns 0x00 (0000ms, 1043ms total)
T556C 002:080 JLINK_WriteReg(R12, 0x00000000)  returns 0x00 (0001ms, 1044ms total)
T556C 002:081 JLINK_WriteReg(R13 (SP), 0x20001000)  returns 0x00 (0000ms, 1044ms total)
T556C 002:081 JLINK_WriteReg(R14, 0x20000001)  returns 0x00 (0000ms, 1044ms total)
T556C 002:081 JLINK_WriteReg(R15 (PC), 0x200000FA)  returns 0x00 (0000ms, 1044ms total)
T556C 002:081 JLINK_WriteReg(XPSR, 0x01000000)  returns 0x00 (0000ms, 1044ms total)
T556C 002:081 JLINK_WriteReg(MSP, 0x20001000)  returns 0x00 (0000ms, 1044ms total)
T556C 002:081 JLINK_WriteReg(PSP, 0x20001000)  returns 0x00 (0000ms, 1044ms total)
T556C 002:081 JLINK_WriteReg(CFBP, 0x00000000)  returns 0x00 (0000ms, 1044ms total)
T556C 002:081 JLINK_SetBPEx(Addr = 0x20000000, Type = 0xFFFFFFF2)  returns 0x0000000B (0000ms, 1044ms total)
T556C 002:081 JLINK_Go() (0003ms, 1047ms total)
T556C 002:084 JLINK_IsHalted()  returns FALSE (0001ms, 1048ms total)
T556C 002:089 JLINK_IsHalted()  returns FALSE (0000ms, 1047ms total)
T556C 002:091 JLINK_IsHalted()  returns FALSE (0000ms, 1047ms total)
T556C 002:093 JLINK_IsHalted()  returns FALSE (0000ms, 1047ms total)
T556C 002:095 JLINK_IsHalted()  returns FALSE (0000ms, 1047ms total)
T556C 002:097 JLINK_IsHalted()  returns FALSE (0000ms, 1047ms total)
T556C 002:099 JLINK_IsHalted()  returns FALSE (0000ms, 1047ms total)
T556C 002:101 JLINK_IsHalted()  returns FALSE (0000ms, 1047ms total)
T556C 002:103 JLINK_IsHalted()  returns FALSE (0000ms, 1047ms total)
T556C 002:105 JLINK_IsHalted()  returns FALSE (0000ms, 1047ms total)
T556C 002:107 JLINK_IsHalted()  returns FALSE (0000ms, 1047ms total)
T556C 002:109 JLINK_IsHalted()  returns FALSE (0000ms, 1047ms total)
T556C 002:111 JLINK_IsHalted()  returns FALSE (0000ms, 1047ms total)
T556C 002:113 JLINK_IsHalted()  returns FALSE (0000ms, 1047ms total)
T556C 002:115 JLINK_IsHalted() -- CPU_ReadMem(2 bytes @ 0x20000000)  returns TRUE (0008ms, 1055ms total)
T556C 002:123 JLINK_ReadReg(R15 (PC))  returns 0x20000000 (0000ms, 1047ms total)
T556C 002:123 JLINK_ClrBPEx(BPHandle = 0x0000000B)  returns 0x00 (0000ms, 1047ms total)
T556C 002:123 JLINK_ReadReg(R0)  returns 0x00000000 (0000ms, 1047ms total)
T556C 002:123 JLINK_WriteMem(0x20000170, 0x0290 Bytes, ...) - Data: 08 43 38 49 08 62 0B E0 36 48 00 6A 40 08 40 00 ... -- CPU_WriteMem(656 bytes @ 0x20000170)  returns 0x290 (0019ms, 1066ms total)
T556C 002:142 JLINK_WriteMem(0x20000400, 0x0170 Bytes, ...) - Data: 7F D0 20 20 30 40 00 28 7B D0 40 20 28 40 00 28 ... -- CPU_WriteMem(368 bytes @ 0x20000400)  returns 0x170 (0010ms, 1076ms total)
T556C 002:152 JLINK_WriteReg(R0, 0x08001C00)  returns 0x00 (0000ms, 1076ms total)
T556C 002:152 JLINK_WriteReg(R1, 0x00000400)  returns 0x00 (0000ms, 1076ms total)
T556C 002:152 JLINK_WriteReg(R2, 0x20000170)  returns 0x00 (0000ms, 1076ms total)
T556C 002:152 JLINK_WriteReg(R3, 0x00000000)  returns 0x00 (0000ms, 1076ms total)
T556C 002:152 JLINK_WriteReg(R4, 0x00000000)  returns 0x00 (0000ms, 1076ms total)
T556C 002:152 JLINK_WriteReg(R5, 0x00000000)  returns 0x00 (0000ms, 1076ms total)
T556C 002:152 JLINK_WriteReg(R6, 0x00000000)  returns 0x00 (0000ms, 1076ms total)
T556C 002:152 JLINK_WriteReg(R7, 0x00000000)  returns 0x00 (0000ms, 1076ms total)
T556C 002:152 JLINK_WriteReg(R8, 0x00000000)  returns 0x00 (0000ms, 1076ms total)
T556C 002:152 JLINK_WriteReg(R9, 0x2000016C)  returns 0x00 (0000ms, 1076ms total)
T556C 002:152 JLINK_WriteReg(R10, 0x00000000)  returns 0x00 (0000ms, 1076ms total)
T556C 002:152 JLINK_WriteReg(R11, 0x00000000)  returns 0x00 (0000ms, 1076ms total)
T556C 002:152 JLINK_WriteReg(R12, 0x00000000)  returns 0x00 (0000ms, 1076ms total)
T556C 002:152 JLINK_WriteReg(R13 (SP), 0x20001000)  returns 0x00 (0000ms, 1076ms total)
T556C 002:152 JLINK_WriteReg(R14, 0x20000001)  returns 0x00 (0000ms, 1076ms total)
T556C 002:152 JLINK_WriteReg(R15 (PC), 0x200000FA)  returns 0x00 (0000ms, 1076ms total)
T556C 002:152 JLINK_WriteReg(XPSR, 0x01000000)  returns 0x00 (0000ms, 1076ms total)
T556C 002:152 JLINK_WriteReg(MSP, 0x20001000)  returns 0x00 (0000ms, 1076ms total)
T556C 002:152 JLINK_WriteReg(PSP, 0x20001000)  returns 0x00 (0000ms, 1076ms total)
T556C 002:152 JLINK_WriteReg(CFBP, 0x00000000)  returns 0x00 (0000ms, 1076ms total)
T556C 002:152 JLINK_SetBPEx(Addr = 0x20000000, Type = 0xFFFFFFF2)  returns 0x0000000C (0001ms, 1077ms total)
T556C 002:153 JLINK_Go() (0003ms, 1080ms total)
T556C 002:156 JLINK_IsHalted()  returns FALSE (0001ms, 1081ms total)
T556C 002:167 JLINK_IsHalted()  returns FALSE (0000ms, 1080ms total)
T556C 002:169 JLINK_IsHalted()  returns FALSE (0000ms, 1080ms total)
T556C 002:171 JLINK_IsHalted()  returns FALSE (0000ms, 1080ms total)
T556C 002:173 JLINK_IsHalted()  returns FALSE (0000ms, 1080ms total)
T556C 002:175 JLINK_IsHalted()  returns FALSE (0000ms, 1080ms total)
T556C 002:177 JLINK_IsHalted()  returns FALSE (0000ms, 1080ms total)
T556C 002:179 JLINK_IsHalted()  returns FALSE (0000ms, 1080ms total)
T556C 002:181 JLINK_IsHalted()  returns FALSE (0000ms, 1080ms total)
T556C 002:183 JLINK_IsHalted()  returns FALSE (0000ms, 1080ms total)
T556C 002:185 JLINK_IsHalted()  returns FALSE (0000ms, 1080ms total)
T556C 002:187 JLINK_IsHalted() -- CPU_ReadMem(2 bytes @ 0x20000000)  returns TRUE (0008ms, 1088ms total)
T556C 002:195 JLINK_ReadReg(R15 (PC))  returns 0x20000000 (0000ms, 1080ms total)
T556C 002:195 JLINK_ClrBPEx(BPHandle = 0x0000000C)  returns 0x00 (0000ms, 1080ms total)
T556C 002:195 JLINK_ReadReg(R0)  returns 0x00000000 (0000ms, 1080ms total)
T556C 002:199 JLINK_WriteMem(0x20000170, 0x0290 Bytes, ...) - Data: 09 02 E0 68 88 42 01 D0 00 21 A1 62 20 6B 00 28 ... -- CPU_WriteMem(656 bytes @ 0x20000170)  returns 0x290 (0018ms, 1098ms total)
T556C 002:217 JLINK_WriteMem(0x20000400, 0x0170 Bytes, ...) - Data: 09 03 88 43 21 68 48 60 06 E0 20 68 40 68 01 21 ... -- CPU_WriteMem(368 bytes @ 0x20000400)  returns 0x170 (0011ms, 1109ms total)
T556C 002:228 JLINK_WriteReg(R0, 0x08002000)  returns 0x00 (0000ms, 1109ms total)
T556C 002:228 JLINK_WriteReg(R1, 0x00000400)  returns 0x00 (0000ms, 1109ms total)
T556C 002:228 JLINK_WriteReg(R2, 0x20000170)  returns 0x00 (0000ms, 1109ms total)
T556C 002:228 JLINK_WriteReg(R3, 0x00000000)  returns 0x00 (0000ms, 1109ms total)
T556C 002:228 JLINK_WriteReg(R4, 0x00000000)  returns 0x00 (0000ms, 1109ms total)
T556C 002:228 JLINK_WriteReg(R5, 0x00000000)  returns 0x00 (0000ms, 1109ms total)
T556C 002:228 JLINK_WriteReg(R6, 0x00000000)  returns 0x00 (0000ms, 1109ms total)
T556C 002:228 JLINK_WriteReg(R7, 0x00000000)  returns 0x00 (0000ms, 1109ms total)
T556C 002:228 JLINK_WriteReg(R8, 0x00000000)  returns 0x00 (0000ms, 1109ms total)
T556C 002:228 JLINK_WriteReg(R9, 0x2000016C)  returns 0x00 (0000ms, 1109ms total)
T556C 002:228 JLINK_WriteReg(R10, 0x00000000)  returns 0x00 (0000ms, 1109ms total)
T556C 002:228 JLINK_WriteReg(R11, 0x00000000)  returns 0x00 (0000ms, 1109ms total)
T556C 002:228 JLINK_WriteReg(R12, 0x00000000)  returns 0x00 (0000ms, 1109ms total)
T556C 002:228 JLINK_WriteReg(R13 (SP), 0x20001000)  returns 0x00 (0000ms, 1109ms total)
T556C 002:228 JLINK_WriteReg(R14, 0x20000001)  returns 0x00 (0000ms, 1109ms total)
T556C 002:228 JLINK_WriteReg(R15 (PC), 0x200000FA)  returns 0x00 (0000ms, 1109ms total)
T556C 002:228 JLINK_WriteReg(XPSR, 0x01000000)  returns 0x00 (0000ms, 1109ms total)
T556C 002:228 JLINK_WriteReg(MSP, 0x20001000)  returns 0x00 (0000ms, 1109ms total)
T556C 002:228 JLINK_WriteReg(PSP, 0x20001000)  returns 0x00 (0000ms, 1109ms total)
T556C 002:228 JLINK_WriteReg(CFBP, 0x00000000)  returns 0x00 (0000ms, 1109ms total)
T556C 002:228 JLINK_SetBPEx(Addr = 0x20000000, Type = 0xFFFFFFF2)  returns 0x0000000D (0000ms, 1109ms total)
T556C 002:228 JLINK_Go() (0004ms, 1113ms total)
T556C 002:232 JLINK_IsHalted()  returns FALSE (0001ms, 1114ms total)
T556C 002:239 JLINK_IsHalted()  returns FALSE (0000ms, 1113ms total)
T556C 002:241 JLINK_IsHalted()  returns FALSE (0000ms, 1113ms total)
T556C 002:243 JLINK_IsHalted()  returns FALSE (0000ms, 1113ms total)
T556C 002:245 JLINK_IsHalted()  returns FALSE (0000ms, 1113ms total)
T556C 002:247 JLINK_IsHalted()  returns FALSE (0001ms, 1114ms total)
T556C 002:250 JLINK_IsHalted()  returns FALSE (0000ms, 1113ms total)
T556C 002:252 JLINK_IsHalted()  returns FALSE (0000ms, 1113ms total)
T556C 002:254 JLINK_IsHalted()  returns FALSE (0000ms, 1113ms total)
T556C 002:256 JLINK_IsHalted()  returns FALSE (0000ms, 1113ms total)
T556C 002:258 JLINK_IsHalted()  returns FALSE (0000ms, 1113ms total)
T556C 002:262 JLINK_IsHalted() -- CPU_ReadMem(2 bytes @ 0x20000000)  returns TRUE (0009ms, 1122ms total)
T556C 002:271 JLINK_ReadReg(R15 (PC))  returns 0x20000000 (0000ms, 1113ms total)
T556C 002:271 JLINK_ClrBPEx(BPHandle = 0x0000000D)  returns 0x00 (0000ms, 1113ms total)
T556C 002:271 JLINK_ReadReg(R0)  returns 0x00000000 (0000ms, 1113ms total)
T556C 002:271 JLINK_WriteMem(0x20000170, 0x0290 Bytes, ...) - Data: E0 68 88 42 18 D1 20 6B 02 28 15 D1 02 98 33 46 ... -- CPU_WriteMem(656 bytes @ 0x20000170)  returns 0x290 (0018ms, 1131ms total)
T556C 002:289 JLINK_WriteMem(0x20000400, 0x0170 Bytes, ...) - Data: 5D 20 01 55 00 BF 00 21 5C 20 01 55 00 BF 01 98 ... -- CPU_WriteMem(368 bytes @ 0x20000400)  returns 0x170 (0011ms, 1142ms total)
T556C 002:300 JLINK_WriteReg(R0, 0x08002400)  returns 0x00 (0000ms, 1142ms total)
T556C 002:300 JLINK_WriteReg(R1, 0x00000400)  returns 0x00 (0000ms, 1142ms total)
T556C 002:300 JLINK_WriteReg(R2, 0x20000170)  returns 0x00 (0000ms, 1142ms total)
T556C 002:300 JLINK_WriteReg(R3, 0x00000000)  returns 0x00 (0000ms, 1142ms total)
T556C 002:300 JLINK_WriteReg(R4, 0x00000000)  returns 0x00 (0000ms, 1142ms total)
T556C 002:300 JLINK_WriteReg(R5, 0x00000000)  returns 0x00 (0000ms, 1142ms total)
T556C 002:300 JLINK_WriteReg(R6, 0x00000000)  returns 0x00 (0000ms, 1142ms total)
T556C 002:300 JLINK_WriteReg(R7, 0x00000000)  returns 0x00 (0000ms, 1142ms total)
T556C 002:300 JLINK_WriteReg(R8, 0x00000000)  returns 0x00 (0000ms, 1142ms total)
T556C 002:300 JLINK_WriteReg(R9, 0x2000016C)  returns 0x00 (0000ms, 1142ms total)
T556C 002:300 JLINK_WriteReg(R10, 0x00000000)  returns 0x00 (0000ms, 1142ms total)
T556C 002:300 JLINK_WriteReg(R11, 0x00000000)  returns 0x00 (0000ms, 1142ms total)
T556C 002:300 JLINK_WriteReg(R12, 0x00000000)  returns 0x00 (0000ms, 1142ms total)
T556C 002:300 JLINK_WriteReg(R13 (SP), 0x20001000)  returns 0x00 (0000ms, 1142ms total)
T556C 002:300 JLINK_WriteReg(R14, 0x20000001)  returns 0x00 (0000ms, 1142ms total)
T556C 002:300 JLINK_WriteReg(R15 (PC), 0x200000FA)  returns 0x00 (0000ms, 1142ms total)
T556C 002:300 JLINK_WriteReg(XPSR, 0x01000000)  returns 0x00 (0000ms, 1142ms total)
T556C 002:300 JLINK_WriteReg(MSP, 0x20001000)  returns 0x00 (0000ms, 1142ms total)
T556C 002:300 JLINK_WriteReg(PSP, 0x20001000)  returns 0x00 (0000ms, 1142ms total)
T556C 002:300 JLINK_WriteReg(CFBP, 0x00000000)  returns 0x00 (0000ms, 1142ms total)
T556C 002:300 JLINK_SetBPEx(Addr = 0x20000000, Type = 0xFFFFFFF2)  returns 0x0000000E (0000ms, 1142ms total)
T556C 002:300 JLINK_Go() (0004ms, 1146ms total)
T556C 002:304 JLINK_IsHalted()  returns FALSE (0001ms, 1147ms total)
T556C 002:308 JLINK_IsHalted()  returns FALSE (0000ms, 1146ms total)
T556C 002:310 JLINK_IsHalted()  returns FALSE (0000ms, 1146ms total)
T556C 002:312 JLINK_IsHalted()  returns FALSE (0000ms, 1146ms total)
T556C 002:314 JLINK_IsHalted()  returns FALSE (0000ms, 1146ms total)
T556C 002:316 JLINK_IsHalted()  returns FALSE (0000ms, 1146ms total)
T556C 002:318 JLINK_IsHalted()  returns FALSE (0000ms, 1146ms total)
T556C 002:320 JLINK_IsHalted()  returns FALSE (0000ms, 1146ms total)
T556C 002:322 JLINK_IsHalted()  returns FALSE (0000ms, 1146ms total)
T556C 002:324 JLINK_IsHalted()  returns FALSE (0000ms, 1146ms total)
T556C 002:326 JLINK_IsHalted()  returns FALSE (0000ms, 1146ms total)
T556C 002:328 JLINK_IsHalted()  returns FALSE (0000ms, 1146ms total)
T556C 002:330 JLINK_IsHalted()  returns FALSE (0000ms, 1146ms total)
T556C 002:332 JLINK_IsHalted()  returns FALSE (0000ms, 1146ms total)
T556C 002:334 JLINK_IsHalted() -- CPU_ReadMem(2 bytes @ 0x20000000)  returns TRUE (0008ms, 1154ms total)
T556C 002:342 JLINK_ReadReg(R15 (PC))  returns 0x20000000 (0000ms, 1146ms total)
T556C 002:342 JLINK_ClrBPEx(BPHandle = 0x0000000E)  returns 0x00 (0000ms, 1146ms total)
T556C 002:342 JLINK_ReadReg(R0)  returns 0x00000000 (0000ms, 1146ms total)
T556C 002:342 JLINK_WriteMem(0x20000170, 0x0290 Bytes, ...) - Data: 28 88 21 68 C8 60 AD 1C E0 8F 40 1E E0 87 00 20 ... -- CPU_WriteMem(656 bytes @ 0x20000170)  returns 0x290 (0018ms, 1164ms total)
T556C 002:360 JLINK_WriteMem(0x20000400, 0x0170 Bytes, ...) - Data: 02 F0 02 F9 00 28 01 D0 20 20 20 66 20 6E 00 28 ... -- CPU_WriteMem(368 bytes @ 0x20000400)  returns 0x170 (0011ms, 1175ms total)
T556C 002:371 JLINK_WriteReg(R0, 0x08002800)  returns 0x00 (0000ms, 1175ms total)
T556C 002:371 JLINK_WriteReg(R1, 0x00000400)  returns 0x00 (0000ms, 1175ms total)
T556C 002:371 JLINK_WriteReg(R2, 0x20000170)  returns 0x00 (0000ms, 1175ms total)
T556C 002:371 JLINK_WriteReg(R3, 0x00000000)  returns 0x00 (0000ms, 1175ms total)
T556C 002:371 JLINK_WriteReg(R4, 0x00000000)  returns 0x00 (0000ms, 1175ms total)
T556C 002:371 JLINK_WriteReg(R5, 0x00000000)  returns 0x00 (0000ms, 1175ms total)
T556C 002:371 JLINK_WriteReg(R6, 0x00000000)  returns 0x00 (0000ms, 1175ms total)
T556C 002:371 JLINK_WriteReg(R7, 0x00000000)  returns 0x00 (0000ms, 1175ms total)
T556C 002:371 JLINK_WriteReg(R8, 0x00000000)  returns 0x00 (0000ms, 1175ms total)
T556C 002:371 JLINK_WriteReg(R9, 0x2000016C)  returns 0x00 (0000ms, 1175ms total)
T556C 002:371 JLINK_WriteReg(R10, 0x00000000)  returns 0x00 (0000ms, 1175ms total)
T556C 002:371 JLINK_WriteReg(R11, 0x00000000)  returns 0x00 (0000ms, 1175ms total)
T556C 002:371 JLINK_WriteReg(R12, 0x00000000)  returns 0x00 (0000ms, 1175ms total)
T556C 002:371 JLINK_WriteReg(R13 (SP), 0x20001000)  returns 0x00 (0000ms, 1175ms total)
T556C 002:371 JLINK_WriteReg(R14, 0x20000001)  returns 0x00 (0000ms, 1175ms total)
T556C 002:371 JLINK_WriteReg(R15 (PC), 0x200000FA)  returns 0x00 (0000ms, 1175ms total)
